  can0  74A   [8]  02 10 03 00 00 00 00 00
  can0  291   [8]  00 80 00 08 00 FF 20 57
  can0  292   [8]  FF 07 00 00 00 04 20 DC
  can0  7CA   [8]  06 50 03 00 32 01 F4 00
  can0  291   [8]  00 80 00 08 00 FF 30 47
  can0  292   [8]  FF 07 00 00 00 04 30 CC
  can0  74A   [8]  03 28 03 01 00 00 00 00
  can0  290   [8]  00 00 00 00 03 40 B0 F3
  can0  293   [8]  02 08 80 26 04 02 B0 1A
  can0  7CA   [8]  02 68 03 00 00 00 00 00
  can0  74A   [8]  02 85 02 00 00 00 00 00
  can0  7CA   [8]  02 C5 02 00 00 00 00 00
  can0  74A   [8]  02 10 02 00 00 00 00 00
  can0  7CA   [8]  06 50 02 00 32 01 F4 00
  can0  74A   [8]  02 27 05 00 00 00 00 00
  can0  7CA   [8]  06 67 05 60 7A 68 49 00
  can0  74A   [8]  06 27 06 D4 13 9B 28 00
  can0  7CA   [8]  02 67 06 00 00 00 00 00
  can0  74A   [8]  03 22 AF FC 00 00 00 00
  can0  7CA   [8]  05 62 AF FC 00 45 00 00
  can0  74A   [8]  04 31 01 DF FF 00 00 00
  can0  7CA   [8]  03 7F 31 78 00 00 00 00
  can0  7CA   [8]  05 71 01 DF FF 00 00 00
  can0  74A   [8]  10 0D 31 01 FF 00 44 80
  can0  7CA   [8]  30 08 01 00 00 00 00 00
  can0  74A   [8]  21 01 C0 20 00 00 3F E0
  can0  7CA   [8]  03 7F 31 78 00 00 00 00
  can0  7CA   [8]  05 71 01 FF 00 00 00 00
  can0  74A   [8]  10 0B 34 00 44 80 01 C0
  can0  7CA   [8]  30 08 01 00 00 00 00 00
  can0  74A   [8]  21 20 00 00 3F E0 3F E0
  can0  7CA   [8]  04 74 20 04 02 00 00 00
  can0  74A   [8]  14 02 36 01 05 0D 06 01
  can0  7CA   [8]  30 08 01 00 00 00 00 00
  can0  74A   [8]  21 04 01 01 01 01 01 01
  can0  74A   [8]  22 07 09 FF FF 00 58 00
  can0  74A   [8]  23 60 00 80 0F A6 00 A0
  can0  74A   [8]  24 00 A0 00 B3 01 35 02
  can0  74A   [8]  25 7D 00 01 FF 6D 01 01
  can0  74A   [8]  26 00 02 3E 2F 00 00 37
  can0  74A   [8]  27 0D 78 B8 7C 06 01 E1
  can0  74A   [8]  28 01 0A 32 2C 01 01 37
  can0  7CA   [8]  30 08 01 00 00 00 00 00
  can0  74A   [8]  29 0C 0C 1C 23 23 0C 16
  can0  74A   [8]  2A 1E 1B 23 07 0A 05 0A
  can0  74A   [8]  2B 03 0A 03 0A 0A 05 01
  can0  74A   [8]  2C 01 02 01 01 02 00 2B
  can0  74A   [8]  2D 19 FF 00 00 C8 00 FF
  can0  74A   [8]  2E FF 1F 00 65 E1 01 00
  can0  74A   [8]  2F FF 02 00 00 FF 7F FE
  can0  74A   [8]  20 3F 01 01 00 00 F4 01
  can0  7CA   [8]  30 08 01 00 00 00 00 00
  can0  74A   [8]  21 64 00 64 00 64 00 64
  can0  74A   [8]  22 00 64 00 64 00 64 00
  can0  74A   [8]  23 64 00 64 00 64 00 64
  can0  74A   [8]  24 00 64 00 64 00 64 00
  can0  74A   [8]  25 64 00 64 00 64 00 64
  can0  74A   [8]  26 00 10 27 E8 03 10 27
  can0  74A   [8]  27 E8 03 D0 07 D0 07 64
  can0  74A   [8]  28 00 64 00 88 13 88 13
  can0  7CA   [8]  30 08 01 00 00 00 00 00
  can0  74A   [8]  29 64 00 64 00 88 13 88
  can0  74A   [8]  2A 13 10 27 D0 07 F4 01
  can0  74A   [8]  2B F4 01 63 63 E8 03 E8
  can0  74A   [8]  2C 03 63 63 E8 03 E8 03
  can0  74A   [8]  2D 63 63 E8 03 E8 03 4B
  can0  74A   [8]  2E 4B E8 03 E8 03 63 63
  can0  74A   [8]  2F E8 03 E8 03 63 63 E8
  can0  74A   [8]  20 03 E8 03 63 63 E8 03
  can0  7CA   [8]  30 08 01 00 00 00 00 00
  can0  74A   [8]  21 E8 03 63 63 E8 03 E8
  can0  74A   [8]  22 03 63 63 E8 03 E8 03
  can0  74A   [8]  23 63 63 E8 03 E8 03 73
  can0  74A   [8]  24 73 88 13 88 13 69 69
  can0  74A   [8]  25 88 13 88 13 D0 07 D0
  can0  74A   [8]  26 07 D0 07 D0 07 D0 07
  can0  74A   [8]  27 E8 03 D0 07 D0 07 D0
  can0  74A   [8]  28 07 E8 03 3C 00 D0 07
  can0  7CA   [8]  30 08 01 00 00 00 00 00
  can0  74A   [8]  29 3C 00 D0 07 3B 03 1A
  can0  74A   [8]  2A 00 1A 00 D1 01 1A 00
  can0  74A   [8]  2B 1A 00 E8 03 E8 03 55
  can0  74A   [8]  2C 03 1A 00 1A 00 B8 01
  can0  74A   [8]  2D 1A 00 1A 00 E8 03 E8
  can0  74A   [8]  2E 03 89 03 1A 00 1A 00
  can0  74A   [8]  2F 36 01 1A 00 1A 00 E8
  can0  74A   [8]  20 03 E8 03 BA 02 10 00
  can0  7CA   [8]  30 08 01 00 00 00 00 00
  can0  74A   [8]  21 00 00 55 03 00 00 10
  can0  74A   [8]  22 00 F4 01 D1 01 10 00
  can0  74A   [8]  23 00 00 2F 02 00 00 10
  can0  74A   [8]  24 00 F4 01 27 03 1F 00
  can0  74A   [8]  25 00 00 A3 03 00 00 1F
  can0  74A   [8]  26 00 F4 01 F0 01 1F 00
  can0  74A   [8]  27 00 00 6D 02 00 00 1F
  can0  74A   [8]  28 00 F4 01 36 01 1F 00
  can0  7CA   [8]  30 08 01 00 00 00 00 00
  can0  74A   [8]  29 00 00 B2 01 00 00 1F
  can0  74A   [8]  2A 00 F4 01 FF FF FF FF
  can0  74A   [8]  2B FF FF FF FF FF FF FF
  can0  74A   [8]  2C FF FF FF FF FF FF FF
  can0  74A   [8]  2D FF FF FF FF FF FF FF
  can0  74A   [8]  2E FF FF FF FF FF FF FF
  can0  74A   [8]  2F FF FF FF FF FF FF FF
  can0  74A   [8]  20 FF FF FF FF FF FF FF
  can0  7CA   [8]  30 08 01 00 00 00 00 00
  can0  74A   [8]  21 FF FF FF FF FF FF FF
  can0  74A   [8]  22 FF FF FF FF FF FF FF
  can0  74A   [8]  23 FF FF FF FF FF FF FF
  can0  74A   [8]  24 FF FF FF FF FF FF FF
  can0  74A   [8]  25 FF FF FF FF FF FF FF
  can0  74A   [8]  26 FF FF FF FF FF FF FF
  can0  74A   [8]  27 FF FF FF FF FF FF FF
  can0  74A   [8]  28 FF FF FF FF FF FF FF
  can0  7CA   [8]  30 08 01 00 00 00 00 00
  can0  74A   [8]  29 FF FF FF FF FF FF FF
  can0  74A   [8]  2A FF FF FF FF FF FF FF
  can0  74A   [8]  2B FF FF FF FF FF FF FF
  can0  74A   [8]  2C FF FF FF FF FF FF FF
  can0  74A   [8]  2D FF FF FF FF FF FF FF
  can0  74A   [8]  2E FF FF FF FF FF FF FF
  can0  74A   [8]  2F FF FF FF FF FF FF FF
  can0  74A   [8]  20 FF FF FF FF FF FF FF
  can0  7CA   [8]  30 08 01 00 00 00 00 00
  can0  74A   [8]  21 FF FF FF FF FF FF FF
  can0  74A   [8]  22 FF FF FF FF FF FF FF
  can0  74A   [8]  23 FF FF FF FF FF FF FF
  can0  74A   [8]  24 FF FF FF FF FF FF FF
  can0  74A   [8]  25 FF FF FF FF FF FF FF
  can0  74A   [8]  26 FF FF FF FF FF FF FF
  can0  74A   [8]  27 FF FF FF FF FF FF FF
  can0  74A   [8]  28 FF FF FF FF FF FF FF
  can0  7CA   [8]  30 08 01 00 00 00 00 00
  can0  74A   [8]  29 FF FF FF FF FF FF FF
  can0  74A   [8]  2A FF FF FF FF FF FF FF
  can0  74A   [8]  2B FF FF FF FF FF FF FF
  can0  74A   [8]  2C FF FF FF FF FF FF FF
  can0  74A   [8]  2D FF FF FF FF FF FF FF
  can0  74A   [8]  2E FF FF FF FF FF FF FF
  can0  74A   [8]  2F FF FF FF FF FF FF FF
  can0  74A   [8]  20 FF FF FF FF FF FF FF
  can0  7CA   [8]  30 08 01 00 00 00 00 00
  can0  74A   [8]  21 FF FF FF FF FF FF FF
  can0  74A   [8]  22 FF FF FF FF FF FF FF
  can0  74A   [8]  23 FF FF FF FF FF FF FF
  can0  74A   [8]  24 FF FF FF FF FF FF FF
  can0  74A   [8]  25 FF FF FF FF FF FF FF
  can0  74A   [8]  26 FF FF FF FF FF FF FF
  can0  74A   [8]  27 FF FF FF FF FF FF FF
  can0  74A   [8]  28 FF FF FF FF FF FF FF
  can0  7CA   [8]  30 08 01 00 00 00 00 00
  can0  74A   [8]  29 FF FF FF FF FF FF FF
  can0  74A   [8]  2A FF FF FF FF FF FF FF
  can0  74A   [8]  2B FF FF FF FF FF FF FF
  can0  74A   [8]  2C FF FF FF FF FF FF FF
  can0  74A   [8]  2D FF FF FF FF FF FF FF
  can0  74A   [8]  2E FF FF FF FF FF FF FF
  can0  74A   [8]  2F FF FF FF FF FF FF FF
  can0  74A   [8]  20 FF FF FF FF FF FF FF
  can0  7CA   [8]  30 08 01 00 00 00 00 00
  can0  74A   [8]  21 FF FF FF FF FF FF FF
  can0  74A   [8]  22 FF FF FF FF FF FF FF
  can0  74A   [8]  23 FF FF FF FF FF FF FF
  can0  74A   [8]  24 FF FF FF FF FF FF FF
  can0  74A   [8]  25 FF FF FF FF FF FF FF
  can0  74A   [8]  26 FF FF FF FF FF FF FF
  can0  74A   [8]  27 FF FF FF FF FF FF FF
  can0  74A   [8]  28 FF FF FF FF FF FF FF
  can0  7CA   [8]  30 08 01 00 00 00 00 00
  can0  74A   [8]  29 FF FF FF FF FF FF FF
  can0  74A   [8]  2A FF FF FF FF FF FF FF
  can0  74A   [8]  2B FF FF FF FF FF FF FF
  can0  74A   [8]  2C FF FF FF FF FF FF FF
  can0  74A   [8]  2D FF FF FF FF FF FF FF
  can0  74A   [8]  2E FF FF FF FF FF FF FF
  can0  74A   [8]  2F FF FF FF FF FF FF FF
  can0  74A   [8]  20 FF FF FF FF FF FF FF
  can0  7CA   [8]  30 08 01 00 00 00 00 00
  can0  74A   [8]  21 FF FF FF FF FF FF FF
  can0  74A   [8]  22 FF FF FF FF FF FF FF
  can0  74A   [8]  23 FF FF FF FF FF FF FF
  can0  74A   [8]  24 FF FF FF FF FF FF FF
  can0  74A   [8]  25 FF FF FF FF FF FF FF
  can0  74A   [8]  26 FF FF FF FF FF FF FF
  can0  74A   [8]  27 FF FF FF FF FF FF FF
  can0  74A   [8]  28 FF FF FF FF FF FF FF
  can0  7CA   [8]  30 08 01 00 00 00 00 00
  can0  74A   [8]  29 FF FF FF FF FF FF FF
  can0  74A   [8]  2A FF FF FF FF FF FF FF
  can0  74A   [8]  2B FF FF FF FF FF FF FF
  can0  74A   [8]  2C FF FF FF FF FF FF FF
  can0  74A   [8]  2D FF FF FF FF FF FF FF
  can0  74A   [8]  2E FF FF FF FF FF FF FF
  can0  74A   [8]  2F FF FF FF FF FF FF FF
  can0  74A   [8]  20 FF FF FF FF FF FF FF
  can0  7CA   [8]  30 08 01 00 00 00 00 00
  can0  74A   [8]  21 FF FF FF FF FF FF FF
  can0  74A   [8]  22 FF FF FF FF FF 00 00
  can0  7CA   [8]  03 7F 36 78 00 00 00 00
  can0  7CA   [8]  02 76 01 00 00 00 00 00
  can0  74A   [8]  14 02 36 02 FF FF FF FF
  can0  7CA   [8]  30 08 01 00 00 00 00 00
  can0  74A   [8]  21 FF FF FF FF FF FF FF
  can0  74A   [8]  22 FF FF FF FF FF FF FF
  can0  74A   [8]  23 FF FF FF FF FF FF FF
  can0  74A   [8]  24 FF FF FF FF FF FF FF
  can0  74A   [8]  25 FF FF FF FF FF FF FF
  can0  74A   [8]  26 FF FF FF FF FF FF FF
  can0  74A   [8]  27 FF FF FF FF FF FF FF
  can0  74A   [8]  28 FF FF FF FF FF FF FF
  can0  7CA   [8]  30 08 01 00 00 00 00 00
  can0  74A   [8]  29 FF FF FF FF FF FF FF
  can0  74A   [8]  2A FF FF FF FF FF FF FF
  can0  74A   [8]  2B FF FF FF FF FF FF FF
  can0  74A   [8]  2C FF FF FF FF FF FF FF
  can0  74A   [8]  2D FF FF FF FF FF FF FF
  can0  74A   [8]  2E FF FF FF FF FF FF FF
  can0  74A   [8]  2F FF FF FF FF FF FF FF
  can0  74A   [8]  20 FF FF FF FF FF FF FF
  can0  7CA   [8]  30 08 01 00 00 00 00 00
  can0  74A   [8]  21 FF FF FF FF FF FF FF
  can0  74A   [8]  22 FF FF FF FF FF FF FF
  can0  74A   [8]  23 FF FF FF FF FF FF FF
  can0  74A   [8]  24 FF FF FF FF FF FF FF
  can0  74A   [8]  25 FF FF FF FF FF FF FF
  can0  74A   [8]  26 FF FF FF FF FF FF FF
  can0  74A   [8]  27 FF FF FF FF FF FF FF
  can0  74A   [8]  28 FF FF FF FF FF FF FF
  can0  7CA   [8]  30 08 01 00 00 00 00 00
  can0  74A   [8]  29 FF FF FF FF FF FF FF
  can0  74A   [8]  2A FF FF FF FF FF FF FF
  can0  74A   [8]  2B FF FF FF FF FF FF FF
  can0  74A   [8]  2C FF FF FF FF FF FF FF
  can0  74A   [8]  2D FF FF FF FF FF FF FF
  can0  74A   [8]  2E FF FF FF FF FF FF FF
  can0  74A   [8]  2F FF FF FF FF FF FF FF
  can0  74A   [8]  20 FF FF FF FF FF FF FF
  can0  7CA   [8]  30 08 01 00 00 00 00 00
  can0  74A   [8]  21 FF FF FF FF FF FF FF
  can0  74A   [8]  22 FF FF FF FF FF FF FF
  can0  74A   [8]  23 FF FF FF FF FF FF FF
  can0  74A   [8]  24 FF FF FF FF FF FF FF
  can0  74A   [8]  25 FF FF FF FF FF FF FF
  can0  74A   [8]  26 FF FF FF FF FF FF FF
  can0  74A   [8]  27 FF FF FF FF FF FF FF
  can0  74A   [8]  28 FF FF FF FF FF FF FF
  can0  7CA   [8]  30 08 01 00 00 00 00 00
  can0  74A   [8]  29 FF FF FF FF FF FF FF
  can0  74A   [8]  2A FF FF FF FF FF FF FF
  can0  74A   [8]  2B FF FF FF FF FF FF FF
  can0  74A   [8]  2C FF FF FF FF FF FF FF
  can0  74A   [8]  2D FF FF FF FF FF FF FF
  can0  74A   [8]  2E FF FF FF FF FF FF FF
  can0  74A   [8]  2F FF FF FF FF FF FF FF
  can0  74A   [8]  20 FF FF FF FF FF FF FF
  can0  7CA   [8]  30 08 01 00 00 00 00 00
  can0  74A   [8]  21 FF FF FF FF FF FF FF
  can0  74A   [8]  22 FF FF FF FF FF FF FF
  can0  74A   [8]  23 FF FF FF FF FF FF FF
  can0  74A   [8]  24 FF FF FF FF FF FF FF
  can0  74A   [8]  25 FF FF FF FF FF FF FF
  can0  74A   [8]  26 FF FF FF FF FF FF FF
  can0  74A   [8]  27 FF FF FF FF FF FF FF
  can0  74A   [8]  28 FF FF FF FF FF FF FF
  can0  7CA   [8]  30 08 01 00 00 00 00 00
  can0  74A   [8]  29 FF FF FF FF FF FF FF
  can0  74A   [8]  2A FF FF FF FF FF FF FF
  can0  74A   [8]  2B FF FF FF FF FF FF FF
  can0  74A   [8]  2C FF FF FF FF FF FF FF
  can0  74A   [8]  2D FF FF FF FF FF FF FF
  can0  74A   [8]  2E FF FF FF FF FF FF FF
  can0  74A   [8]  2F FF FF FF FF FF FF FF
  can0  74A   [8]  20 FF FF FF FF FF FF FF
  can0  7CA   [8]  30 08 01 00 00 00 00 00
  can0  74A   [8]  21 FF FF FF FF FF FF FF
  can0  74A   [8]  22 FF FF FF FF FF FF FF
  can0  74A   [8]  23 FF FF FF FF FF FF FF
  can0  74A   [8]  24 FF FF FF FF FF FF FF
  can0  74A   [8]  25 FF FF FF FF FF FF FF
  can0  74A   [8]  26 FF FF FF FF FF FF FF
  can0  74A   [8]  27 FF FF FF FF FF FF FF
  can0  74A   [8]  28 FF FF FF FF FF FF FF
  can0  7CA   [8]  30 08 01 00 00 00 00 00
  can0  74A   [8]  29 FF FF FF FF FF FF FF
  can0  74A   [8]  2A FF FF FF FF FF FF FF
  can0  74A   [8]  2B FF FF FF FF FF FF FF
  can0  74A   [8]  2C FF FF FF FF FF FF FF
  can0  74A   [8]  2D FF FF FF FF FF FF FF
  can0  74A   [8]  2E FF FF FF FF FF FF FF
  can0  74A   [8]  2F FF FF FF FF FF FF FF
  can0  74A   [8]  20 FF FF FF FF FF FF FF
  can0  7CA   [8]  30 08 01 00 00 00 00 00
  can0  74A   [8]  21 FF FF FF FF FF FF FF
  can0  74A   [8]  22 FF FF FF FF FF FF FF
  can0  74A   [8]  23 FF FF FF FF FF FF FF
  can0  74A   [8]  24 FF FF FF FF FF FF FF
  can0  74A   [8]  25 FF FF FF FF FF FF FF
  can0  74A   [8]  26 FF FF FF FF FF FF FF
  can0  74A   [8]  27 FF FF FF FF FF FF FF
  can0  74A   [8]  28 FF FF FF FF FF FF FF
  can0  7CA   [8]  30 08 01 00 00 00 00 00
  can0  74A   [8]  29 FF FF FF FF FF FF FF
  can0  74A   [8]  2A FF FF FF FF FF FF FF
  can0  74A   [8]  2B FF FF FF FF FF FF FF
  can0  74A   [8]  2C FF FF FF FF FF FF FF
  can0  74A   [8]  2D FF FF FF FF FF FF FF
  can0  74A   [8]  2E FF FF FF FF FF FF FF
  can0  74A   [8]  2F FF FF FF FF FF FF FF
  can0  74A   [8]  20 FF FF FF FF FF FF FF
  can0  7CA   [8]  30 08 01 00 00 00 00 00
  can0  74A   [8]  21 FF FF FF FF FF FF FF
  can0  74A   [8]  22 FF FF FF FF FF FF FF
  can0  74A   [8]  23 FF FF FF FF FF FF FF
  can0  74A   [8]  24 FF FF FF FF FF FF FF
  can0  74A   [8]  25 FF FF FF FF FF FF FF
  can0  74A   [8]  26 FF FF FF FF FF FF FF
  can0  74A   [8]  27 FF FF FF FF FF FF FF
  can0  74A   [8]  28 FF FF FF FF FF FF FF
  can0  7CA   [8]  30 08 01 00 00 00 00 00
  can0  74A   [8]  29 FF FF FF FF FF FF FF
  can0  74A   [8]  2A FF FF FF FF FF FF FF
  can0  74A   [8]  2B FF FF FF FF FF FF FF
  can0  74A   [8]  2C FF FF FF FF FF FF FF
  can0  74A   [8]  2D FF FF FF FF FF FF FF
  can0  74A   [8]  2E FF FF FF FF FF FF FF
  can0  74A   [8]  2F FF FF FF FF FF FF FF
  can0  74A   [8]  20 FF FF FF FF FF FF FF
  can0  7CA   [8]  30 08 01 00 00 00 00 00
  can0  74A   [8]  21 FF FF FF FF FF FF FF
  can0  74A   [8]  22 FF FF FF FF FF FF FF
  can0  74A   [8]  23 FF FF FF FF FF FF FF
  can0  74A   [8]  24 FF FF FF FF FF FF FF
  can0  74A   [8]  25 FF FF FF FF FF FF FF
  can0  74A   [8]  26 FF FF FF FF FF FF FF
  can0  74A   [8]  27 FF FF FF FF FF FF FF
  can0  74A   [8]  28 FF FF FF FF FF FF FF
  can0  7CA   [8]  30 08 01 00 00 00 00 00
  can0  74A   [8]  29 FF FF FF FF FF FF FF
  can0  74A   [8]  2A FF FF FF FF FF FF FF
  can0  74A   [8]  2B FF FF FF FF FF FF FF
  can0  74A   [8]  2C FF FF FF FF FF FF FF
  can0  74A   [8]  2D FF FF FF FF FF FF FF
  can0  74A   [8]  2E FF FF FF FF FF FF FF
  can0  74A   [8]  2F FF FF FF FF FF FF FF
  can0  74A   [8]  20 FF FF FF FF FF FF FF
  can0  7CA   [8]  30 08 01 00 00 00 00 00
  can0  74A   [8]  21 FF FF FF FF FF FF FF
  can0  74A   [8]  22 FF FF FF FF FF FF FF
  can0  74A   [8]  23 FF FF FF FF FF FF FF
  can0  74A   [8]  24 FF FF FF FF FF FF FF
  can0  74A   [8]  25 FF FF FF FF FF FF FF
  can0  74A   [8]  26 FF FF FF FF FF FF FF
  can0  74A   [8]  27 FF FF FF FF FF FF FF
  can0  74A   [8]  28 FF FF FF FF FF FF FF
  can0  7CA   [8]  30 08 01 00 00 00 00 00
  can0  74A   [8]  29 FF FF FF FF FF FF FF
  can0  74A   [8]  2A FF FF FF FF FF FF FF
  can0  74A   [8]  2B FF FF FF FF FF FF FF
  can0  74A   [8]  2C FF FF FF FF FF FF FF
  can0  74A   [8]  2D FF FF FF FF FF FF FF
  can0  74A   [8]  2E FF FF FF FF FF FF FF
  can0  74A   [8]  2F FF FF FF FF FF FF FF
  can0  74A   [8]  20 FF FF FF FF FF FF FF
  can0  7CA   [8]  30 08 01 00 00 00 00 00
  can0  74A   [8]  21 FF FF FF FF FF FF FF
  can0  74A   [8]  22 FF FF FF FF FF 00 00
  can0  7CA   [8]  03 7F 36 78 00 00 00 00
  can0  7CA   [8]  02 76 02 00 00 00 00 00
  can0  74A   [8]  14 02 36 03 FF FF FF FF
  can0  7CA   [8]  30 08 01 00 00 00 00 00
  can0  74A   [8]  21 FF FF FF FF FF FF FF
  can0  74A   [8]  22 FF FF FF FF FF FF FF
  can0  74A   [8]  23 FF FF FF FF FF FF FF
  can0  74A   [8]  24 FF FF FF FF FF FF FF
  can0  74A   [8]  25 FF FF FF FF FF FF FF
  can0  74A   [8]  26 FF FF FF FF FF FF FF
  can0  74A   [8]  27 FF FF FF FF FF FF FF
  can0  74A   [8]  28 FF FF FF FF FF FF FF
  can0  7CA   [8]  30 08 01 00 00 00 00 00
  can0  74A   [8]  29 FF FF FF FF FF FF FF
  can0  74A   [8]  2A FF FF FF FF FF FF FF
  can0  74A   [8]  2B FF FF FF FF FF FF FF
  can0  74A   [8]  2C FF FF FF FF FF FF FF
  can0  74A   [8]  2D FF FF FF FF FF FF FF
  can0  74A   [8]  2E FF FF FF FF FF FF FF
  can0  74A   [8]  2F FF FF FF FF FF FF FF
  can0  74A   [8]  20 FF FF FF FF FF FF FF
  can0  7CA   [8]  30 08 01 00 00 00 00 00
  can0  74A   [8]  21 FF FF FF FF FF FF FF
  can0  74A   [8]  22 FF FF FF FF FF FF FF
  can0  74A   [8]  23 FF FF FF FF FF FF FF
  can0  74A   [8]  24 FF FF FF FF FF FF FF
  can0  74A   [8]  25 FF FF FF FF FF FF FF
  can0  74A   [8]  26 FF FF FF FF FF FF FF
  can0  74A   [8]  27 FF FF FF FF FF FF FF
  can0  74A   [8]  28 FF FF FF FF FF FF FF
  can0  7CA   [8]  30 08 01 00 00 00 00 00
  can0  74A   [8]  29 FF FF FF FF FF FF FF
  can0  74A   [8]  2A FF FF FF FF FF FF FF
  can0  74A   [8]  2B FF FF FF FF FF FF FF
  can0  74A   [8]  2C FF FF FF FF FF FF FF
  can0  74A   [8]  2D FF FF FF FF FF FF FF
  can0  74A   [8]  2E FF FF FF FF FF FF FF
  can0  74A   [8]  2F FF FF FF FF FF FF FF
  can0  74A   [8]  20 FF FF FF FF FF FF FF
  can0  7CA   [8]  30 08 01 00 00 00 00 00
  can0  74A   [8]  21 FF FF FF FF FF FF FF
  can0  74A   [8]  22 FF FF FF FF FF FF FF
  can0  74A   [8]  23 FF FF FF FF FF FF FF
  can0  74A   [8]  24 FF FF FF FF FF FF FF
  can0  74A   [8]  25 FF FF FF FF FF FF FF
  can0  74A   [8]  26 FF FF FF FF FF FF FF
  can0  74A   [8]  27 FF FF FF FF FF FF FF
  can0  74A   [8]  28 FF FF FF FF FF FF FF
  can0  7CA   [8]  30 08 01 00 00 00 00 00
  can0  74A   [8]  29 FF FF FF FF FF FF FF
  can0  74A   [8]  2A FF FF FF FF FF FF FF
  can0  74A   [8]  2B FF FF FF FF FF FF FF
  can0  74A   [8]  2C FF FF FF FF FF FF FF
  can0  74A   [8]  2D FF FF FF FF FF FF FF
  can0  74A   [8]  2E FF FF FF FF FF FF FF
  can0  74A   [8]  2F FF FF FF FF FF FF FF
  can0  74A   [8]  20 FF FF FF FF FF FF FF
  can0  7CA   [8]  30 08 01 00 00 00 00 00
  can0  74A   [8]  21 FF FF FF FF FF FF FF
  can0  74A   [8]  22 FF FF FF FF FF FF FF
  can0  74A   [8]  23 FF FF FF FF FF FF FF
  can0  74A   [8]  24 FF FF FF FF FF FF FF
  can0  74A   [8]  25 FF FF FF FF FF FF FF
  can0  74A   [8]  26 FF FF FF FF FF FF FF
  can0  74A   [8]  27 FF FF FF FF FF FF FF
  can0  74A   [8]  28 FF FF FF FF FF FF FF
  can0  7CA   [8]  30 08 01 00 00 00 00 00
  can0  74A   [8]  29 FF FF FF FF FF FF FF
  can0  74A   [8]  2A FF FF FF FF FF FF FF
  can0  74A   [8]  2B FF FF FF FF FF FF FF
  can0  74A   [8]  2C FF FF FF FF FF FF FF
  can0  74A   [8]  2D FF FF FF FF FF FF FF
  can0  74A   [8]  2E FF FF FF FF FF FF FF
  can0  74A   [8]  2F FF FF FF FF FF FF FF
  can0  74A   [8]  20 FF FF FF FF FF FF FF
  can0  7CA   [8]  30 08 01 00 00 00 00 00
  can0  74A   [8]  21 FF FF FF FF FF FF FF
  can0  74A   [8]  22 FF FF FF FF FF FF FF
  can0  74A   [8]  23 FF FF FF FF FF FF FF
  can0  74A   [8]  24 FF FF FF FF FF FF FF
  can0  74A   [8]  25 FF FF FF FF FF FF FF
  can0  74A   [8]  26 FF FF FF FF FF FF FF
  can0  74A   [8]  27 FF FF FF FF FF FF FF
  can0  74A   [8]  28 FF FF FF FF FF FF FF
  can0  7CA   [8]  30 08 01 00 00 00 00 00
  can0  74A   [8]  29 FF FF FF FF FF FF FF
  can0  74A   [8]  2A FF FF FF FF FF FF FF
  can0  74A   [8]  2B FF FF FF FF FF FF FF
  can0  74A   [8]  2C FF FF FF FF FF FF FF
  can0  74A   [8]  2D FF FF FF FF FF FF FF
  can0  74A   [8]  2E FF FF FF FF FF FF FF
  can0  74A   [8]  2F FF FF FF FF FF FF FF
  can0  74A   [8]  20 FF FF FF FF FF FF FF
  can0  7CA   [8]  30 08 01 00 00 00 00 00
  can0  74A   [8]  21 FF FF FF FF FF FF FF
  can0  74A   [8]  22 FF FF FF FF FF FF FF
  can0  74A   [8]  23 FF FF FF FF FF FF FF
  can0  74A   [8]  24 FF FF FF FF FF FF FF
  can0  74A   [8]  25 FF FF FF FF FF FF FF
  can0  74A   [8]  26 FF FF FF FF FF FF FF
  can0  74A   [8]  27 FF FF FF FF FF FF FF
  can0  74A   [8]  28 FF FF FF FF FF FF FF
  can0  7CA   [8]  30 08 01 00 00 00 00 00
  can0  74A   [8]  29 FF FF FF FF FF FF FF
  can0  74A   [8]  2A FF FF FF FF FF FF FF
  can0  74A   [8]  2B FF FF FF FF FF FF FF
  can0  74A   [8]  2C FF FF FF FF FF FF FF
  can0  74A   [8]  2D FF FF FF FF FF FF FF
  can0  74A   [8]  2E FF FF FF FF FF FF FF
  can0  74A   [8]  2F FF FF FF FF FF FF FF
  can0  74A   [8]  20 FF FF FF FF FF FF FF
  can0  7CA   [8]  30 08 01 00 00 00 00 00
  can0  74A   [8]  21 FF FF FF FF FF FF FF
  can0  74A   [8]  22 FF FF FF FF FF FF FF
  can0  74A   [8]  23 FF FF FF FF FF FF FF
  can0  74A   [8]  24 FF FF FF FF FF FF FF
  can0  74A   [8]  25 FF FF FF FF FF FF FF
  can0  74A   [8]  26 FF FF FF FF FF FF FF
  can0  74A   [8]  27 FF FF FF FF FF FF FF
  can0  74A   [8]  28 FF FF FF FF FF FF FF
  can0  7CA   [8]  30 08 01 00 00 00 00 00
  can0  74A   [8]  29 FF FF FF FF FF FF FF
  can0  74A   [8]  2A FF FF FF FF FF FF FF
  can0  74A   [8]  2B FF FF FF FF FF FF FF
  can0  74A   [8]  2C FF FF FF FF FF FF FF
  can0  74A   [8]  2D FF FF FF FF FF FF FF
  can0  74A   [8]  2E FF FF FF FF FF FF FF
  can0  74A   [8]  2F FF FF FF FF FF FF FF
  can0  74A   [8]  20 FF FF FF FF FF FF FF
  can0  7CA   [8]  30 08 01 00 00 00 00 00
  can0  74A   [8]  21 FF FF FF FF FF FF FF
  can0  74A   [8]  22 FF FF FF FF FF FF FF
  can0  74A   [8]  23 FF FF FF FF FF FF FF
  can0  74A   [8]  24 FF FF FF FF FF FF FF
  can0  74A   [8]  25 FF FF FF FF FF FF FF
  can0  74A   [8]  26 FF FF FF FF FF FF FF
  can0  74A   [8]  27 FF FF FF FF FF FF FF
  can0  74A   [8]  28 FF FF FF FF FF FF FF
  can0  7CA   [8]  30 08 01 00 00 00 00 00
  can0  74A   [8]  29 FF FF FF FF FF FF FF
  can0  74A   [8]  2A FF FF FF FF FF FF FF
  can0  74A   [8]  2B FF FF FF FF FF FF FF
  can0  74A   [8]  2C FF FF FF FF FF FF FF
  can0  74A   [8]  2D FF FF FF FF FF FF FF
  can0  74A   [8]  2E FF FF FF FF FF FF FF
  can0  74A   [8]  2F FF FF FF FF FF FF FF
  can0  74A   [8]  20 FF FF FF FF FF FF FF
  can0  7CA   [8]  30 08 01 00 00 00 00 00
  can0  74A   [8]  21 FF FF FF FF FF FF FF
  can0  74A   [8]  22 FF FF FF FF FF FF FF
  can0  74A   [8]  23 FF FF FF FF FF FF FF
  can0  74A   [8]  24 FF FF FF FF FF FF FF
  can0  74A   [8]  25 FF FF FF FF FF FF FF
  can0  74A   [8]  26 FF FF FF FF FF FF FF
  can0  74A   [8]  27 FF FF FF FF FF FF FF
  can0  74A   [8]  28 FF FF FF FF FF FF FF
  can0  7CA   [8]  30 08 01 00 00 00 00 00
  can0  74A   [8]  29 FF FF FF FF FF FF FF
  can0  74A   [8]  2A FF FF FF FF FF FF FF
  can0  74A   [8]  2B FF FF FF FF FF FF FF
  can0  74A   [8]  2C FF FF FF FF FF FF FF
  can0  74A   [8]  2D FF FF FF FF FF FF FF
  can0  74A   [8]  2E FF FF FF FF FF FF FF
  can0  74A   [8]  2F FF FF FF FF FF FF FF
  can0  74A   [8]  20 FF FF FF FF FF FF FF
  can0  7CA   [8]  30 08 01 00 00 00 00 00
  can0  74A   [8]  21 FF FF FF FF FF FF FF
  can0  74A   [8]  22 FF FF FF FF FF 00 00
  can0  7CA   [8]  03 7F 36 78 00 00 00 00
  can0  7CA   [8]  02 76 03 00 00 00 00 00
  can0  74A   [8]  14 02 36 04 FF FF FF FF
  can0  7CA   [8]  30 08 01 00 00 00 00 00
  can0  74A   [8]  21 FF FF FF FF FF FF FF
  can0  74A   [8]  22 FF FF FF FF FF FF FF
  can0  74A   [8]  23 FF FF FF FF FF FF FF
  can0  74A   [8]  24 FF FF FF FF FF FF FF
  can0  74A   [8]  25 FF FF FF FF FF FF FF
  can0  74A   [8]  26 FF FF FF FF FF FF FF
  can0  74A   [8]  27 FF FF FF FF FF FF FF
  can0  74A   [8]  28 FF FF FF FF FF FF FF
  can0  7CA   [8]  30 08 01 00 00 00 00 00
  can0  74A   [8]  29 FF FF FF FF FF FF FF
  can0  74A   [8]  2A FF FF FF FF FF FF FF
  can0  74A   [8]  2B FF FF FF FF FF FF FF
  can0  74A   [8]  2C FF FF FF FF FF FF FF
  can0  74A   [8]  2D FF FF FF FF FF FF FF
  can0  74A   [8]  2E FF FF FF FF FF FF FF
  can0  74A   [8]  2F FF FF FF FF FF FF FF
  can0  74A   [8]  20 FF FF FF FF FF FF FF
  can0  7CA   [8]  30 08 01 00 00 00 00 00
  can0  74A   [8]  21 FF FF FF FF FF FF FF
  can0  74A   [8]  22 FF FF FF FF FF FF FF
  can0  74A   [8]  23 FF FF FF FF FF FF FF
  can0  74A   [8]  24 FF FF FF FF FF FF FF
  can0  74A   [8]  25 FF FF FF FF FF FF FF
  can0  74A   [8]  26 FF FF FF FF FF FF FF
  can0  74A   [8]  27 FF FF FF FF FF FF FF
  can0  74A   [8]  28 FF FF FF FF FF FF FF
  can0  7CA   [8]  30 08 01 00 00 00 00 00
  can0  74A   [8]  29 FF FF FF FF FF FF FF
  can0  74A   [8]  2A FF FF FF FF FF FF FF
  can0  74A   [8]  2B FF FF FF FF FF FF FF
  can0  74A   [8]  2C FF FF FF FF FF FF FF
  can0  74A   [8]  2D FF FF FF FF FF FF FF
  can0  74A   [8]  2E FF FF FF FF FF FF FF
  can0  74A   [8]  2F FF FF FF FF FF FF FF
  can0  74A   [8]  20 FF FF FF FF FF FF FF
  can0  7CA   [8]  30 08 01 00 00 00 00 00
  can0  74A   [8]  21 FF FF FF FF FF FF FF
  can0  74A   [8]  22 FF FF FF FF FF FF FF
  can0  74A   [8]  23 FF FF FF FF FF FF FF
  can0  74A   [8]  24 FF FF FF FF FF FF FF
  can0  74A   [8]  25 FF FF FF FF FF FF FF
  can0  74A   [8]  26 FF FF FF FF FF FF FF
  can0  74A   [8]  27 FF FF FF FF FF FF FF
  can0  74A   [8]  28 FF FF FF FF FF FF FF
  can0  7CA   [8]  30 08 01 00 00 00 00 00
  can0  74A   [8]  29 FF FF FF FF FF FF FF
  can0  74A   [8]  2A FF FF FF FF FF FF FF
  can0  74A   [8]  2B FF FF FF FF FF FF FF
  can0  74A   [8]  2C FF FF FF FF FF FF FF
  can0  74A   [8]  2D FF FF FF FF FF FF FF
  can0  74A   [8]  2E FF FF FF FF FF FF FF
  can0  74A   [8]  2F FF FF FF FF FF FF FF
  can0  74A   [8]  20 FF FF FF FF FF FF FF
  can0  7CA   [8]  30 08 01 00 00 00 00 00
  can0  74A   [8]  21 FF FF FF FF FF FF FF
  can0  74A   [8]  22 FF FF FF FF FF FF FF
  can0  74A   [8]  23 FF FF FF FF FF FF FF
  can0  74A   [8]  24 FF FF FF FF FF FF FF
  can0  74A   [8]  25 FF FF FF FF FF FF FF
  can0  74A   [8]  26 FF FF FF FF FF FF FF
  can0  74A   [8]  27 FF FF FF FF FF FF FF
  can0  74A   [8]  28 FF FF FF FF FF FF FF
  can0  7CA   [8]  30 08 01 00 00 00 00 00
  can0  74A   [8]  29 FF FF FF FF FF FF FF
  can0  74A   [8]  2A FF FF FF FF FF FF FF
  can0  74A   [8]  2B FF FF FF FF FF FF FF
  can0  74A   [8]  2C FF FF FF FF FF FF FF
  can0  74A   [8]  2D FF FF FF FF FF FF FF
  can0  74A   [8]  2E FF FF FF FF FF FF FF
  can0  74A   [8]  2F FF FF FF FF FF FF FF
  can0  74A   [8]  20 FF FF FF FF FF FF FF
  can0  7CA   [8]  30 08 01 00 00 00 00 00
  can0  74A   [8]  21 FF FF FF FF FF FF FF
  can0  74A   [8]  22 FF FF FF FF FF FF FF
  can0  74A   [8]  23 FF FF FF FF FF FF FF
  can0  74A   [8]  24 FF FF FF FF FF FF FF
  can0  74A   [8]  25 FF FF FF FF FF FF FF
  can0  74A   [8]  26 FF FF FF FF FF FF FF
  can0  74A   [8]  27 FF FF FF FF FF FF FF
  can0  74A   [8]  28 FF FF FF FF FF FF FF
  can0  7CA   [8]  30 08 01 00 00 00 00 00
  can0  74A   [8]  29 FF FF FF FF FF FF FF
  can0  74A   [8]  2A FF FF FF FF FF FF FF
  can0  74A   [8]  2B FF FF FF FF FF FF FF
  can0  74A   [8]  2C FF FF FF FF FF FF FF
  can0  74A   [8]  2D FF FF FF FF FF FF FF
  can0  74A   [8]  2E FF FF FF FF FF FF FF
  can0  74A   [8]  2F FF FF FF FF FF FF FF
  can0  74A   [8]  20 FF FF FF FF FF FF FF
  can0  7CA   [8]  30 08 01 00 00 00 00 00
  can0  74A   [8]  21 FF FF FF FF FF FF FF
  can0  74A   [8]  22 FF FF FF FF FF FF FF
  can0  74A   [8]  23 FF FF FF FF FF FF FF
  can0  74A   [8]  24 FF FF FF FF FF FF FF
  can0  74A   [8]  25 FF FF FF FF FF FF FF
  can0  74A   [8]  26 FF FF FF FF FF FF FF
  can0  74A   [8]  27 FF FF FF FF FF FF FF
  can0  74A   [8]  28 FF FF FF FF FF FF FF
  can0  7CA   [8]  30 08 01 00 00 00 00 00
  can0  74A   [8]  29 FF FF FF FF FF FF FF
  can0  74A   [8]  2A FF FF FF FF FF FF FF
  can0  74A   [8]  2B FF FF FF FF FF FF FF
  can0  74A   [8]  2C FF FF FF FF FF FF FF
  can0  74A   [8]  2D FF FF FF FF FF FF FF
  can0  74A   [8]  2E FF FF FF FF FF FF FF
  can0  74A   [8]  2F FF FF FF FF FF FF FF
  can0  74A   [8]  20 FF FF FF FF FF FF FF
  can0  7CA   [8]  30 08 01 00 00 00 00 00
  can0  74A   [8]  21 FF FF FF FF FF FF FF
  can0  74A   [8]  22 FF FF FF FF FF FF FF
  can0  74A   [8]  23 FF FF FF FF FF FF FF
  can0  74A   [8]  24 FF FF FF FF FF FF FF
  can0  74A   [8]  25 FF FF FF FF FF FF FF
  can0  74A   [8]  26 FF FF FF FF FF FF FF
  can0  74A   [8]  27 FF FF FF FF FF FF FF
  can0  74A   [8]  28 FF FF FF FF FF FF FF
  can0  7CA   [8]  30 08 01 00 00 00 00 00
  can0  74A   [8]  29 FF FF FF FF FF FF FF
  can0  74A   [8]  2A FF FF FF FF FF FF FF
  can0  74A   [8]  2B FF FF FF FF FF FF FF
  can0  74A   [8]  2C FF FF FF FF FF FF FF
  can0  74A   [8]  2D FF FF FF FF FF FF FF
  can0  74A   [8]  2E FF FF FF FF FF FF FF
  can0  74A   [8]  2F FF FF FF FF FF FF FF
  can0  74A   [8]  20 FF FF FF FF FF FF FF
  can0  7CA   [8]  30 08 01 00 00 00 00 00
  can0  74A   [8]  21 FF FF FF FF FF FF FF
  can0  74A   [8]  22 FF FF FF FF FF FF FF
  can0  74A   [8]  23 FF FF FF FF FF FF FF
  can0  74A   [8]  24 FF FF FF FF FF FF FF
  can0  74A   [8]  25 FF FF FF FF FF FF FF
  can0  74A   [8]  26 FF FF FF FF FF FF FF
  can0  74A   [8]  27 FF FF FF FF FF FF FF
  can0  74A   [8]  28 FF FF FF FF FF FF FF
  can0  7CA   [8]  30 08 01 00 00 00 00 00
  can0  74A   [8]  29 FF FF FF FF FF FF FF
  can0  74A   [8]  2A FF FF FF FF FF FF FF
  can0  74A   [8]  2B FF FF FF FF FF FF FF
  can0  74A   [8]  2C FF FF FF FF FF FF FF
  can0  74A   [8]  2D FF FF FF FF FF FF FF
  can0  74A   [8]  2E FF FF FF FF FF FF FF
  can0  74A   [8]  2F FF FF FF FF FF FF FF
  can0  74A   [8]  20 FF FF FF FF FF FF FF
  can0  7CA   [8]  30 08 01 00 00 00 00 00
  can0  74A   [8]  21 FF FF FF FF FF FF FF
  can0  74A   [8]  22 FF FF FF FF FF FF FF
  can0  74A   [8]  23 FF FF FF FF FF FF FF
  can0  74A   [8]  24 FF FF FF FF FF FF FF
  can0  74A   [8]  25 FF FF FF FF FF FF FF
  can0  74A   [8]  26 FF FF FF FF FF FF FF
  can0  74A   [8]  27 FF FF FF FF FF FF FF
  can0  74A   [8]  28 FF FF FF FF FF FF FF
  can0  7CA   [8]  30 08 01 00 00 00 00 00
  can0  74A   [8]  29 FF FF FF FF FF FF FF
  can0  74A   [8]  2A FF FF FF FF FF FF FF
  can0  74A   [8]  2B FF FF FF FF FF FF FF
  can0  74A   [8]  2C FF FF FF FF FF FF FF
  can0  74A   [8]  2D FF FF FF FF FF FF FF
  can0  74A   [8]  2E FF 03 28 19 E8 03 08
  can0  74A   [8]  2F 50 3C 03 02 55 50 FA
  can0  74A   [8]  20 00 C8 00 32 00 50 00
  can0  7CA   [8]  30 08 01 00 00 00 00 00
  can0  74A   [8]  21 BC 02 D0 07 B8 0B F4
  can0  74A   [8]  22 01 20 03 77 01 00 00
  can0  7CA   [8]  03 7F 36 78 00 00 00 00
  can0  7CA   [8]  02 76 04 00 00 00 00 00
  can0  74A   [8]  14 02 36 05 D0 07 B8 0B
  can0  7CA   [8]  30 08 01 00 00 00 00 00
  can0  74A   [8]  21 E8 03 F4 01 1C 0C 1C
  can0  74A   [8]  22 0C 1C 0C 1C 0C 02 BC
  can0  74A   [8]  23 82 BB D0 07 B0 04 01
  can0  74A   [8]  24 02 20 88 38 01 01 00
  can0  74A   [8]  25 14 00 1E 14 1E 01 1E
  can0  74A   [8]  26 28 01 1E 00 32 00 46
  can0  74A   [8]  27 00 0A 0B 0B FC 08 54
  can0  74A   [8]  28 0B B8 0B AC 0D A0 0F
  can0  7CA   [8]  30 08 01 00 00 00 00 00
  can0  74A   [8]  29 94 11 88 13 70 17 A0
  can0  74A   [8]  2A 00 AA 00 D2 00 D7 00
  can0  74A   [8]  2B DC 00 E1 00 E6 00 F0
  can0  74A   [8]  2C 00 AA 00 AA 00 EB 00
  can0  74A   [8]  2D F0 00 F5 00 FA 00 FF
  can0  74A   [8]  2E 00 09 01 BE 00 BE 00
  can0  74A   [8]  2F F5 00 FA 00 FF 00 04
  can0  74A   [8]  20 01 09 01 13 01 07 05
  can0  7CA   [8]  30 08 01 00 00 00 00 00
  can0  74A   [8]  21 00 08 AB 02 00 00 6D
  can0  74A   [8]  22 02 DA 04 48 07 B5 09
  can0  74A   [8]  23 23 0C 90 0E 6B 13 78
  can0  74A   [8]  24 00 7D 00 82 00 8C 00
  can0  74A   [8]  25 96 00 A0 00 AA 00 B4
  can0  74A   [8]  26 00 78 00 7D 00 82 00
  can0  74A   [8]  27 8C 00 96 00 A0 00 AA
  can0  74A   [8]  28 00 B4 00 78 00 7D 00
  can0  7CA   [8]  30 08 01 00 00 00 00 00
  can0  74A   [8]  29 82 00 8C 00 96 00 A0
  can0  74A   [8]  2A 00 AA 00 B4 00 A0 08
  can0  74A   [8]  2B AB 50 00 00 00 00 6D
  can0  74A   [8]  2C 02 DA 04 22 0C 79 11
  can0  74A   [8]  2D 79 11 79 11 79 11 14
  can0  74A   [8]  2E 00 14 00 14 00 14 00
  can0  74A   [8]  2F 14 00 14 00 14 00 14
  can0  74A   [8]  20 00 14 00 14 00 14 00
  can0  7CA   [8]  30 08 01 00 00 00 00 00
  can0  74A   [8]  21 14 00 14 00 14 00 14
  can0  74A   [8]  22 00 14 00 14 00 14 00
  can0  74A   [8]  23 14 00 14 00 14 00 14
  can0  74A   [8]  24 00 14 00 14 00 AB 04
  can0  74A   [8]  25 16 01 2C 02 57 04 6D
  can0  74A   [8]  26 05 98 07 2C 01 2C 01
  can0  74A   [8]  27 2C 01 2C 01 2C 01 22
  can0  74A   [8]  28 01 22 01 22 01 22 01
  can0  7CA   [8]  30 08 01 00 00 00 00 00
  can0  74A   [8]  29 22 01 22 01 22 01 22
  can0  74A   [8]  2A 01 22 01 22 01 18 01
  can0  74A   [8]  2B 18 01 18 01 18 01 18
  can0  74A   [8]  2C 01 0E 01 0E 01 0E 01
  can0  74A   [8]  2D 0E 01 0E 01 16 01 F4
  can0  74A   [8]  2E 01 E8 03 E2 04 D6 06
  can0  74A   [8]  2F FA 00 A4 06 02 08 38
  can0  74A   [8]  20 04 01 00 16 01 2C 02
  can0  7CA   [8]  30 08 01 00 00 00 00 00
  can0  74A   [8]  21 41 03 82 06 6E 00 82
  can0  74A   [8]  22 00 8C 00 8C 00 6E 00
  can0  74A   [8]  23 82 00 8C 00 8C 00 6E
  can0  74A   [8]  24 00 82 00 8C 00 8C 00
  can0  74A   [8]  25 00 00 B8 0B 02 02 01
  can0  74A   [8]  26 01 16 16 16 01 2C 02
  can0  74A   [8]  27 41 03 82 06 5A 00 5A
  can0  74A   [8]  28 00 6E 00 78 00 5A 00
  can0  7CA   [8]  30 08 01 00 00 00 00 00
  can0  74A   [8]  29 5A 00 6E 00 78 00 5A
  can0  74A   [8]  2A 00 5A 00 6E 00 78 00
  can0  74A   [8]  2B 37 37 D2 20 0D 5A 00
  can0  74A   [8]  2C 6E 00 78 00 78 00 46
  can0  74A   [8]  2D 00 5A 00 5A 00 64 00
  can0  74A   [8]  2E A0 00 A0 00 A0 00 A0
  can0  74A   [8]  2F 00 A0 00 A0 00 A0 00
  can0  74A   [8]  20 A0 00 16 01 2C 02 41
  can0  7CA   [8]  30 08 01 00 00 00 00 00
  can0  74A   [8]  21 03 82 06 A0 00 A0 00
  can0  74A   [8]  22 A0 00 A0 00 00 00 B8
  can0  74A   [8]  23 0B 05 05 16 16 01 01
  can0  74A   [8]  24 FA 00 A4 06 02 08 B0
  can0  74A   [8]  25 04 01 00 16 01 2C 02
  can0  74A   [8]  26 41 03 82 06 82 00 96
  can0  74A   [8]  27 00 A0 00 A0 00 8C 00
  can0  74A   [8]  28 A0 00 A5 00 AA 00 6E
  can0  7CA   [8]  30 08 01 00 00 00 00 00
  can0  74A   [8]  29 00 78 00 8C 00 96 00
  can0  74A   [8]  2A 37 37 D2 20 0D A0 00
  can0  74A   [8]  2B A0 00 A0 00 A0 00 78
  can0  74A   [8]  2C 00 78 00 82 00 96 00
  can0  74A   [8]  2D 16 01 2C 02 41 03 82
  can0  74A   [8]  2E 06 A5 00 A5 00 A5 00
  can0  74A   [8]  2F A5 00 B4 00 B4 00 B4
  can0  74A   [8]  20 00 B4 00 BE 00 BE 00
  can0  7CA   [8]  30 08 01 00 00 00 00 00
  can0  74A   [8]  21 BE 00 BE 00 00 00 B8
  can0  74A   [8]  22 0B 05 05 16 16 01 01
  can0  74A   [8]  23 FA 00 A4 06 02 08 B0
  can0  74A   [8]  24 04 01 00 16 01 2C 02
  can0  74A   [8]  25 41 03 82 06 A0 00 B4
  can0  74A   [8]  26 00 BE 00 BE 00 AA 00
  can0  74A   [8]  27 C8 00 C3 00 C8 00 8C
  can0  74A   [8]  28 00 96 00 AA 00 B4 00
  can0  7CA   [8]  30 08 01 00 00 00 00 00
  can0  74A   [8]  29 37 37 D2 20 0D AA 00
  can0  74A   [8]  2A AA 00 AA 00 AA 00 96
  can0  74A   [8]  2B 00 96 00 A0 00 B4 00
  can0  74A   [8]  2C D8 7D 46 7D 62 BA 0B
  can0  74A   [8]  2D BA 2B 62 02 05 02 05
  can0  74A   [8]  2E 96 00 5A 34 39 ED 6B
  can0  74A   [8]  2F 1F 28 A0 E0 01 05 05
  can0  74A   [8]  20 50 10 80 C6 98 99 79
  can0  7CA   [8]  30 08 01 00 00 00 00 00
  can0  74A   [8]  21 50 55 0D 63 98 99 79
  can0  74A   [8]  22 50 55 0D 00 98 99 79
  can0  74A   [8]  23 50 55 0D 42 06 77 41
  can0  74A   [8]  24 82 0C 77 41 82 25 DC
  can0  74A   [8]  25 45 C2 12 EE 42 02 4B
  can0  74A   [8]  26 10 A7 04 4B 88 93 04
  can0  74A   [8]  27 04 F4 41 04 04 F4 41
  can0  74A   [8]  28 04 32 F4 01 09 32 E8
  can0  7CA   [8]  30 08 01 00 00 00 00 00
  can0  74A   [8]  29 03 12 F4 11 27 12 C8
  can0  74A   [8]  2A A0 0F 12 2C 21 4E 12
  can0  74A   [8]  2B 64 A0 0F 12 64 A0 0F
  can0  74A   [8]  2C 12 64 A0 0F 12 C8 D0
  can0  74A   [8]  2D 07 24 C8 A0 0F 48 40
  can0  74A   [8]  2E 40 1F 44 58 C2 5D 08
  can0  74A   [8]  2F 00 00 10 00 00 04 01
  can0  74A   [8]  20 FF FF FF FF FF FF FF
  can0  7CA   [8]  30 08 01 00 00 00 00 00
  can0  74A   [8]  21 FF FF FF FF FF FF FF
  can0  74A   [8]  22 FF FF FF FF FF FF FF
  can0  74A   [8]  23 FF FF FF FF FF FF FF
  can0  74A   [8]  24 FF FF FF FF FF FF FF
  can0  74A   [8]  25 FF FF FF FF FF FF FF
  can0  74A   [8]  26 FF FF FF FF FF FF FF
  can0  74A   [8]  27 FF FF FF FF FF FF FF
  can0  74A   [8]  28 FF FF FF FF FF FF FF
  can0  7CA   [8]  30 08 01 00 00 00 00 00
  can0  74A   [8]  29 FF FF FF FF FF FF FF
  can0  74A   [8]  2A FF FF FF FF FF FF FF
  can0  74A   [8]  2B FF FF FF FF FF FF FF
  can0  74A   [8]  2C FF FF FF FF FF FF FF
  can0  74A   [8]  2D FF FF FF FF FF FF FF
  can0  74A   [8]  2E FF FF FF FF FF FF FF
  can0  74A   [8]  2F FF FF FF FF FF FF FF
  can0  74A   [8]  20 FF FF FF FF FF FF FF
  can0  7CA   [8]  30 08 01 00 00 00 00 00
  can0  74A   [8]  21 FF FF FF FF FF FF FF
  can0  74A   [8]  22 FF FF FF FF FF FF FF
  can0  74A   [8]  23 FF FF FF FF FF FF FF
  can0  74A   [8]  24 FF FF FF FF FF FF FF
  can0  74A   [8]  25 FF FF FF FF FF FF FF
  can0  74A   [8]  26 FF FF FF FF FF FF FF
  can0  74A   [8]  27 FF FF FF FF FF FF FF
  can0  74A   [8]  28 FF FF FF FF FF FF FF
  can0  7CA   [8]  30 08 01 00 00 00 00 00
  can0  74A   [8]  29 FF FF FF FF FF FF FF
  can0  74A   [8]  2A FF FF FF FF FF FF FF
  can0  74A   [8]  2B FF FF FF FF FF FF FF
  can0  74A   [8]  2C FF FF FF FF FF FF FF
  can0  74A   [8]  2D FF FF FF FF FF FF FF
  can0  74A   [8]  2E FF FF FF FF FF FF FF
  can0  74A   [8]  2F FF FF FF FF FF FF FF
  can0  74A   [8]  20 FF FF FF FF FF FF FF
  can0  7CA   [8]  30 08 01 00 00 00 00 00
  can0  74A   [8]  21 FF FF FF FF FF FF FF
  can0  74A   [8]  22 FF FF FF FF FF 00 00
  can0  7CA   [8]  03 7F 36 78 00 00 00 00
  can0  7CA   [8]  02 76 05 00 00 00 00 00
  can0  74A   [8]  14 02 36 06 FF FF FF FF
  can0  7CA   [8]  30 08 01 00 00 00 00 00
  can0  74A   [8]  21 FF FF FF FF FF FF FF
  can0  74A   [8]  22 FF FF FF FF FF FF FF
  can0  74A   [8]  23 FF FF FF FF FF FF FF
  can0  74A   [8]  24 FF FF FF FF FF FF FF
  can0  74A   [8]  25 FF FF FF FF FF FF FF
  can0  74A   [8]  26 FF FF FF FF FF FF FF
  can0  74A   [8]  27 FF FF FF FF FF FF FF
  can0  74A   [8]  28 FF FF FF FF FF FF FF
  can0  7CA   [8]  30 08 01 00 00 00 00 00
  can0  74A   [8]  29 FF FF FF FF FF FF FF
  can0  74A   [8]  2A FF FF FF FF FF FF FF
  can0  74A   [8]  2B FF FF FF FF FF FF FF
  can0  74A   [8]  2C FF FF FF FF FF FF FF
  can0  74A   [8]  2D FF FF FF FF FF FF FF
  can0  74A   [8]  2E FF FF FF FF FF FF FF
  can0  74A   [8]  2F FF FF FF FF FF FF FF
  can0  74A   [8]  20 FF FF FF FF FF FF FF
  can0  7CA   [8]  30 08 01 00 00 00 00 00
  can0  74A   [8]  21 FF FF FF FF FF FF FF
  can0  74A   [8]  22 FF FF FF FF FF FF FF
  can0  74A   [8]  23 FF FF FF FF FF FF FF
  can0  74A   [8]  24 FF FF FF FF FF FF FF
  can0  74A   [8]  25 FF FF FF FF FF FF FF
  can0  74A   [8]  26 FF FF FF FF FF FF FF
  can0  74A   [8]  27 FF FF FF FF FF FF FF
  can0  74A   [8]  28 FF FF FF FF FF FF FF
  can0  7CA   [8]  30 08 01 00 00 00 00 00
  can0  74A   [8]  29 FF FF FF FF FF FF FF
  can0  74A   [8]  2A FF FF FF FF FF FF FF
  can0  74A   [8]  2B FF FF FF FF FF FF FF
  can0  74A   [8]  2C FF FF FF FF FF FF FF
  can0  74A   [8]  2D FF FF FF FF FF FF FF
  can0  74A   [8]  2E FF FF FF FF FF FF FF
  can0  74A   [8]  2F FF FF FF FF FF FF FF
  can0  74A   [8]  20 FF FF FF FF FF FF FF
  can0  7CA   [8]  30 08 01 00 00 00 00 00
  can0  74A   [8]  21 FF FF FF FF FF FF FF
  can0  74A   [8]  22 FF FF FF FF FF FF FF
  can0  74A   [8]  23 FF FF FF FF FF FF FF
  can0  74A   [8]  24 FF FF FF FF FF FF FF
  can0  74A   [8]  25 FF FF FF FF FF FF FF
  can0  74A   [8]  26 FF FF FF FF FF FF FF
  can0  74A   [8]  27 FF FF FF FF FF FF FF
  can0  74A   [8]  28 FF FF FF FF FF FF FF
  can0  7CA   [8]  30 08 01 00 00 00 00 00
  can0  74A   [8]  29 FF FF FF FF FF FF FF
  can0  74A   [8]  2A FF FF FF FF FF FF FF
  can0  74A   [8]  2B FF FF FF FF FF FF FF
  can0  74A   [8]  2C FF FF FF FF FF FF FF
  can0  74A   [8]  2D FF FF FF FF FF FF FF
  can0  74A   [8]  2E FF FF FF FF FF FF FF
  can0  74A   [8]  2F FF FF FF FF FF FF FF
  can0  74A   [8]  20 FF FF FF FF FF FF FF
  can0  7CA   [8]  30 08 01 00 00 00 00 00
  can0  74A   [8]  21 FF FF FF FF FF FF FF
  can0  74A   [8]  22 FF FF FF FF FF FF FF
  can0  74A   [8]  23 FF FF FF FF FF FF FF
  can0  74A   [8]  24 FF FF FF FF FF FF FF
  can0  74A   [8]  25 FF FF FF FF FF FF FF
  can0  74A   [8]  26 FF FF FF FF FF FF FF
  can0  74A   [8]  27 FF FF FF FF FF FF FF
  can0  74A   [8]  28 FF FF FF FF FF FF FF
  can0  7CA   [8]  30 08 01 00 00 00 00 00
  can0  74A   [8]  29 FF FF FF FF FF FF FF
  can0  74A   [8]  2A FF FF FF FF FF FF FF
  can0  74A   [8]  2B FF FF FF FF FF FF FF
  can0  74A   [8]  2C FF FF FF FF FF FF FF
  can0  74A   [8]  2D FF FF FF FF FF FF FF
  can0  74A   [8]  2E FF FF FF FF FF FF FF
  can0  74A   [8]  2F FF FF FF FF FF FF FF
  can0  74A   [8]  20 FF FF FF FF FF FF FF
  can0  7CA   [8]  30 08 01 00 00 00 00 00
  can0  74A   [8]  21 FF FF FF FF FF FF FF
  can0  74A   [8]  22 FF FF FF FF FF FF FF
  can0  74A   [8]  23 FF FF FF FF FF FF FF
  can0  74A   [8]  24 FF FF FF FF FF FF FF
  can0  74A   [8]  25 FF FF FF FF FF FF FF
  can0  74A   [8]  26 FF FF FF FF FF FF FF
  can0  74A   [8]  27 FF FF FF FF FF FF FF
  can0  74A   [8]  28 FF FF FF FF FF FF FF
  can0  7CA   [8]  30 08 01 00 00 00 00 00
  can0  74A   [8]  29 FF FF FF FF FF FF FF
  can0  74A   [8]  2A FF FF FF FF FF FF FF
  can0  74A   [8]  2B FF FF FF FF FF FF FF
  can0  74A   [8]  2C FF FF FF FF FF FF FF
  can0  74A   [8]  2D FF FF FF FF FF FF FF
  can0  74A   [8]  2E FF FF FF FF FF FF FF
  can0  74A   [8]  2F FF FF FF FF FF FF FF
  can0  74A   [8]  20 FF FF FF FF FF FF FF
  can0  7CA   [8]  30 08 01 00 00 00 00 00
  can0  74A   [8]  21 FF FF FF FF FF FF FF
  can0  74A   [8]  22 FF FF FF FF FF FF FF
  can0  74A   [8]  23 FF FF FF FF FF FF FF
  can0  74A   [8]  24 FF FF FF FF FF FF FF
  can0  74A   [8]  25 FF FF FF FF FF FF FF
  can0  74A   [8]  26 FF FF FF FF FF FF FF
  can0  74A   [8]  27 FF FF FF FF FF FF FF
  can0  74A   [8]  28 FF FF FF FF FF FF FF
  can0  7CA   [8]  30 08 01 00 00 00 00 00
  can0  74A   [8]  29 FF FF FF FF FF FF FF
  can0  74A   [8]  2A FF FF FF FF FF FF FF
  can0  74A   [8]  2B FF FF FF FF FF FF FF
  can0  74A   [8]  2C FF FF FF FF FF FF FF
  can0  74A   [8]  2D FF FF FF FF FF FF FF
  can0  74A   [8]  2E FF FF FF FF FF FF FF
  can0  74A   [8]  2F FF FF FF FF FF FF FF
  can0  74A   [8]  20 FF FF FF FF FF FF FF
  can0  7CA   [8]  30 08 01 00 00 00 00 00
  can0  74A   [8]  21 FF FF FF FF FF FF FF
  can0  74A   [8]  22 FF FF FF FF FF FF FF
  can0  74A   [8]  23 FF FF FF FF FF FF FF
  can0  74A   [8]  24 FF FF FF FF FF FF FF
  can0  74A   [8]  25 FF FF FF FF FF FF FF
  can0  74A   [8]  26 FF FF FF FF FF FF FF
  can0  74A   [8]  27 FF FF FF FF FF FF FF
  can0  74A   [8]  28 FF FF FF FF FF FF FF
  can0  7CA   [8]  30 08 01 00 00 00 00 00
  can0  74A   [8]  29 FF FF FF FF FF FF FF
  can0  74A   [8]  2A FF FF FF FF FF FF FF
  can0  74A   [8]  2B FF FF FF FF FF FF FF
  can0  74A   [8]  2C FF FF FF FF FF FF FF
  can0  74A   [8]  2D FF FF FF FF FF FF FF
  can0  74A   [8]  2E FF FF FF FF FF FF FF
  can0  74A   [8]  2F FF FF FF FF FF FF FF
  can0  74A   [8]  20 FF FF FF FF FF FF FF
  can0  7CA   [8]  30 08 01 00 00 00 00 00
  can0  74A   [8]  21 FF FF FF FF FF FF FF
  can0  74A   [8]  22 FF FF FF FF FF FF FF
  can0  74A   [8]  23 FF FF FF FF FF FF FF
  can0  74A   [8]  24 FF FF FF FF FF FF FF
  can0  74A   [8]  25 FF FF FF FF FF FF FF
  can0  74A   [8]  26 FF FF FF FF FF FF FF
  can0  74A   [8]  27 FF FF FF FF FF FF FF
  can0  74A   [8]  28 FF FF FF FF FF FF FF
  can0  7CA   [8]  30 08 01 00 00 00 00 00
  can0  74A   [8]  29 FF FF FF FF FF FF FF
  can0  74A   [8]  2A FF FF FF FF FF FF FF
  can0  74A   [8]  2B FF FF FF FF FF FF FF
  can0  74A   [8]  2C FF FF FF FF FF FF FF
  can0  74A   [8]  2D FF FF FF FF FF FF FF
  can0  74A   [8]  2E FF FF FF FF FF FF FF
  can0  74A   [8]  2F FF FF FF FF FF FF FF
  can0  74A   [8]  20 FF FF FF FF FF FF FF
  can0  7CA   [8]  30 08 01 00 00 00 00 00
  can0  74A   [8]  21 FF FF FF FF FF FF FF
  can0  74A   [8]  22 FF FF FF FF FF FF FF
  can0  74A   [8]  23 FF FF FF FF FF FF FF
  can0  74A   [8]  24 FF FF FF FF FF FF FF
  can0  74A   [8]  25 FF FF FF FF FF FF FF
  can0  74A   [8]  26 FF FF FF FF FF FF FF
  can0  74A   [8]  27 FF FF FF FF FF FF FF
  can0  74A   [8]  28 FF FF FF FF FF FF FF
  can0  7CA   [8]  30 08 01 00 00 00 00 00
  can0  74A   [8]  29 FF FF FF FF FF FF FF
  can0  74A   [8]  2A FF FF FF FF FF FF FF
  can0  74A   [8]  2B FF FF FF FF FF FF FF
  can0  74A   [8]  2C FF FF FF FF FF FF FF
  can0  74A   [8]  2D FF FF FF FF FF FF FF
  can0  74A   [8]  2E FF FF FF FF FF FF FF
  can0  74A   [8]  2F FF FF FF FF FF FF FF
  can0  74A   [8]  20 FF FF FF FF FF FF FF
  can0  7CA   [8]  30 08 01 00 00 00 00 00
  can0  74A   [8]  21 FF FF FF FF FF FF FF
  can0  74A   [8]  22 FF FF FF FF FF 00 00
  can0  7CA   [8]  03 7F 36 78 00 00 00 00
  can0  7CA   [8]  02 76 06 00 00 00 00 00
  can0  74A   [8]  14 02 36 07 FF FF FF FF
  can0  7CA   [8]  30 08 01 00 00 00 00 00
  can0  74A   [8]  21 FF FF FF FF FF FF FF
  can0  74A   [8]  22 FF FF FF FF FF FF FF
  can0  74A   [8]  23 FF FF FF FF FF FF FF
  can0  74A   [8]  24 FF FF FF FF FF FF FF
  can0  74A   [8]  25 FF FF FF FF FF FF FF
  can0  74A   [8]  26 FF FF FF FF FF FF FF
  can0  74A   [8]  27 FF FF FF FF FF FF FF
  can0  74A   [8]  28 FF FF FF FF FF FF FF
  can0  7CA   [8]  30 08 01 00 00 00 00 00
  can0  74A   [8]  29 FF FF FF FF FF FF FF
  can0  74A   [8]  2A FF FF FF FF FF FF FF
  can0  74A   [8]  2B FF FF FF FF FF FF FF
  can0  74A   [8]  2C FF FF FF FF FF FF FF
  can0  74A   [8]  2D FF FF FF FF FF FF FF
  can0  74A   [8]  2E FF FF FF FF FF FF FF
  can0  74A   [8]  2F FF FF FF FF FF FF FF
  can0  74A   [8]  20 FF FF FF FF FF FF FF
  can0  7CA   [8]  30 08 01 00 00 00 00 00
  can0  74A   [8]  21 FF FF FF FF FF FF FF
  can0  74A   [8]  22 FF FF FF FF FF FF FF
  can0  74A   [8]  23 FF FF FF FF FF FF FF
  can0  74A   [8]  24 FF FF FF FF FF FF FF
  can0  74A   [8]  25 FF FF FF FF FF FF FF
  can0  74A   [8]  26 FF FF FF FF FF FF FF
  can0  74A   [8]  27 FF FF FF FF FF FF FF
  can0  74A   [8]  28 FF FF FF FF FF FF FF
  can0  7CA   [8]  30 08 01 00 00 00 00 00
  can0  74A   [8]  29 FF FF FF FF FF FF FF
  can0  74A   [8]  2A FF FF FF FF FF FF FF
  can0  74A   [8]  2B FF FF FF FF FF FF FF
  can0  74A   [8]  2C FF FF FF FF FF FF FF
  can0  74A   [8]  2D FF FF FF FF FF FF FF
  can0  74A   [8]  2E FF FF FF FF FF FF FF
  can0  74A   [8]  2F FF FF FF FF FF FF FF
  can0  74A   [8]  20 FF FF FF FF FF FF FF
  can0  7CA   [8]  30 08 01 00 00 00 00 00
  can0  74A   [8]  21 FF FF FF FF FF FF FF
  can0  74A   [8]  22 FF FF FF FF FF FF FF
  can0  74A   [8]  23 FF FF FF FF FF FF FF
  can0  74A   [8]  24 FF FF FF FF FF FF FF
  can0  74A   [8]  25 FF FF FF FF FF FF FF
  can0  74A   [8]  26 FF FF FF FF FF FF FF
  can0  74A   [8]  27 FF FF FF FF FF FF FF
  can0  74A   [8]  28 FF FF FF FF FF FF FF
  can0  7CA   [8]  30 08 01 00 00 00 00 00
  can0  74A   [8]  29 FF FF FF FF FF FF FF
  can0  74A   [8]  2A FF FF FF FF FF FF FF
  can0  74A   [8]  2B FF FF FF FF FF FF FF
  can0  74A   [8]  2C FF FF FF FF FF FF FF
  can0  74A   [8]  2D FF FF FF FF FF FF FF
  can0  74A   [8]  2E FF FF FF FF FF FF FF
  can0  74A   [8]  2F FF FF FF FF FF FF FF
  can0  74A   [8]  20 FF FF FF FF FF FF FF
  can0  7CA   [8]  30 08 01 00 00 00 00 00
  can0  74A   [8]  21 FF FF FF FF FF FF FF
  can0  74A   [8]  22 FF FF FF FF FF FF FF
  can0  74A   [8]  23 FF FF FF FF FF FF FF
  can0  74A   [8]  24 FF FF FF FF FF FF FF
  can0  74A   [8]  25 FF FF FF FF FF FF FF
  can0  74A   [8]  26 FF FF FF FF FF FF FF
  can0  74A   [8]  27 FF FF FF FF FF FF FF
  can0  74A   [8]  28 FF FF FF FF FF FF FF
  can0  7CA   [8]  30 08 01 00 00 00 00 00
  can0  74A   [8]  29 FF FF FF FF FF FF FF
  can0  74A   [8]  2A FF FF FF FF FF FF FF
  can0  74A   [8]  2B FF FF FF FF FF FF FF
  can0  74A   [8]  2C FF FF FF FF FF FF FF
  can0  74A   [8]  2D FF FF FF FF FF FF FF
  can0  74A   [8]  2E FF FF FF FF FF FF FF
  can0  74A   [8]  2F FF FF FF FF FF FF FF
  can0  74A   [8]  20 FF FF FF FF FF FF FF
  can0  7CA   [8]  30 08 01 00 00 00 00 00
  can0  74A   [8]  21 FF FF FF FF FF FF FF
  can0  74A   [8]  22 FF FF FF FF FF FF FF
  can0  74A   [8]  23 FF FF FF FF FF FF FF
  can0  74A   [8]  24 FF FF FF FF FF FF FF
  can0  74A   [8]  25 FF FF FF FF FF FF FF
  can0  74A   [8]  26 FF FF FF FF FF FF FF
  can0  74A   [8]  27 FF FF FF FF FF FF FF
  can0  74A   [8]  28 FF FF FF FF FF FF FF
  can0  7CA   [8]  30 08 01 00 00 00 00 00
  can0  74A   [8]  29 FF FF FF FF FF FF FF
  can0  74A   [8]  2A FF FF FF FF FF FF FF
  can0  74A   [8]  2B FF FF FF FF FF FF FF
  can0  74A   [8]  2C FF FF FF FF FF FF FF
  can0  74A   [8]  2D FF FF FF FF FF FF FF
  can0  74A   [8]  2E FF FF FF FF FF FF FF
  can0  74A   [8]  2F FF FF FF FF FF FF FF
  can0  74A   [8]  20 FF FF FF FF FF FF FF
  can0  7CA   [8]  30 08 01 00 00 00 00 00
  can0  74A   [8]  21 FF FF FF FF FF FF FF
  can0  74A   [8]  22 FF FF FF FF FF FF FF
  can0  74A   [8]  23 FF FF FF FF FF FF FF
  can0  74A   [8]  24 FF FF FF FF FF FF FF
  can0  74A   [8]  25 FF FF FF FF FF FF FF
  can0  74A   [8]  26 FF FF FF FF FF FF FF
  can0  74A   [8]  27 FF FF FF FF FF FF FF
  can0  74A   [8]  28 FF FF FF FF FF FF FF
  can0  7CA   [8]  30 08 01 00 00 00 00 00
  can0  74A   [8]  29 FF FF FF FF FF FF FF
  can0  74A   [8]  2A FF FF FF FF FF FF FF
  can0  74A   [8]  2B FF FF FF FF FF FF FF
  can0  74A   [8]  2C FF FF FF FF FF FF FF
  can0  74A   [8]  2D FF FF FF FF FF FF FF
  can0  74A   [8]  2E FF FF FF FF FF FF FF
  can0  74A   [8]  2F FF FF FF FF FF FF FF
  can0  74A   [8]  20 FF FF FF FF FF FF FF
  can0  7CA   [8]  30 08 01 00 00 00 00 00
  can0  74A   [8]  21 FF FF FF FF FF FF FF
  can0  74A   [8]  22 FF FF FF FF FF FF FF
  can0  74A   [8]  23 FF FF FF FF FF FF FF
  can0  74A   [8]  24 FF FF FF FF FF FF FF
  can0  74A   [8]  25 FF FF FF FF FF FF FF
  can0  74A   [8]  26 FF FF FF FF FF FF FF
  can0  74A   [8]  27 FF FF FF FF FF FF FF
  can0  74A   [8]  28 FF FF FF FF FF FF FF
  can0  7CA   [8]  30 08 01 00 00 00 00 00
  can0  74A   [8]  29 FF FF FF FF FF FF FF
  can0  74A   [8]  2A FF FF FF FF FF FF FF
  can0  74A   [8]  2B FF FF FF FF FF FF FF
